T7024 14933:046.272   SEGGER J-Link V9.28 Log File
T7024 14933:046.272   DLL Compiled: Mar 18 2026 14:12:19
T7024 14933:046.272   Logging started @ 2026-04-22 07:09
T7024 14933:046.272   Process: C:\Keil_v5\UV4\UV4.exe
T7024 14933:046.272 - 4354.575ms 
T7024 14933:046.272 JLINK_SetWarnOutHandler(...)
T7024 14933:046.272 - 0.006ms 
T7024 14933:046.272 JLINK_OpenEx(...)
T7024 14933:049.344   Firmware: J-Link V11 compiled Apr  1 2025 10:02:30
T7024 14933:051.392   Firmware: J-Link V11 compiled Apr  1 2025 10:02:30
T7024 14933:071.872   Hardware: V11.00
T7024 14933:071.872   S/N: 601002790
T7024 14933:071.872   OEM: SEGGER
T7024 14933:071.872   Feature(s): RDI, FlashBP, FlashDL, JFlash, GDB
T7024 14933:073.920   Bootloader: 2019 Jul 04
T7024 14933:073.920   USB speed mode: High speed (480 MBit/s)
T7024 14933:075.968   TELNET listener socket opened on port 19021
T7024 14933:079.040   Device "ARM7" selected.
T7024 14933:080.064   WEBSRV WEBSRV_Init(): Starting webserver thread(s)
T7024 14933:080.064   WEBSRV Webserver running on local port 19080
T7024 14933:082.112   Looking for J-Link GUI Server exe at: C:\Keil_v5\ARM\Segger\JLinkGUIServer.exe
T7024 14933:082.112   Looking for J-Link GUI Server exe at: C:\Program Files\SEGGER\JLink_V928\JLinkGUIServer.exe
T7024 14933:082.112   Forking J-Link GUI Server: C:\Program Files\SEGGER\JLink_V928\JLinkGUIServer.exe
T7024 14933:088.256   J-Link GUI Server info: "J-Link GUI server V9.28 "
T7024 14933:088.256 - 42.393ms returns "O.K."
T7024 14933:088.256 JLINK_GetEmuCaps()
T7024 14933:088.256 - 0.014ms returns 0xB9FF7BBF
T7024 14933:088.256 JLINK_TIF_GetAvailable(...)
T7024 14933:088.256 - 0.360ms 
T7024 14933:088.256 JLINK_SetErrorOutHandler(...)
T7024 14933:088.256 - 0.005ms 
T7024 14933:088.256 JLINK_ExecCommand("ProjectFile = "E:\stm32proj\H730test\MDK-ARM\JLinkSettings.ini"", ...). 
T7024 14933:090.304   Device "ARM7" selected.
T7024 14933:092.352 - 2.117ms returns 0x00
T7024 14933:092.352 JLINK_ExecCommand("Device = STM32H730IBKxQ", ...). 
T7024 14933:092.352   Flash bank @ 0x08000000: SFL: Parsing sectorization info from ELF file
T7024 14933:092.352     FlashDevice.SectorInfo[0]: .SectorSize = 0x00020000, .SectorStartAddr = 0x00000000
T7024 14933:092.352   FlashBank @0x08000000: Sectorization info from SFL ELF file ignored because sectorization override from DLL / XML file is active.
T7024 14933:092.352   Flash bank @ 0x90000000: SFL: Parsing sectorization info from ELF file
T7024 14933:092.352     FlashDevice.SectorInfo[0]: .SectorSize = 0x00010000, .SectorStartAddr = 0x00000000
T7024 14933:095.424   Device "STM32H730IB" selected.
T7024 14933:096.448 - 4.602ms returns 0x00
T7024 14933:096.448   ERROR: Unknown command
T7024 14933:096.448 JLINK_GetHardwareVersion()
T7024 14933:096.448 - 0.008ms returns 110000
T7024 14933:096.448 JLINK_GetDLLVersion()
T7024 14933:096.448 - 0.006ms returns 92800
T7024 14933:096.448 JLINK_GetOEMString(...)
T7024 14933:096.448 JLINK_GetFirmwareString(...)
T7024 14933:096.448 - 0.008ms 
T7024 14933:096.448 JLINK_GetDLLVersion()
T7024 14933:096.448 - 0.007ms returns 92800
T7024 14933:096.448 JLINK_GetCompileDateTime()
T7024 14933:096.448 - 0.006ms 
T7024 14933:096.448 JLINK_GetFirmwareString(...)
T7024 14933:096.448 - 0.006ms 
T7024 14933:096.448 JLINK_GetHardwareVersion()
T7024 14933:096.448 - 0.006ms returns 110000
T7024 14933:096.448 JLINK_GetSN()
T7024 14933:096.448 - 0.007ms returns 601002790
T7024 14933:096.448 JLINK_GetOEMString(...)
T7024 14933:096.448 JLINK_TIF_Select(JLINKARM_TIF_SWD)
T7024 14933:098.496 - 1.407ms returns 0x00
T7024 14933:098.496 JLINK_HasError()
T7024 14933:098.496 JLINK_SetSpeed(50000)
T7024 14933:098.496 - 0.324ms 
T7024 14933:098.496 JLINK_GetId()
T7024 14933:098.496   ConfigTargetSettings() start
T7024 14933:098.496    J-Link Script File: Executing ConfigTargetSettings()
T7024 14933:098.496   ConfigTargetSettings() end - Took 13us
T7024 14933:098.496   InitTarget() start
T7024 14933:098.496    J-Link Script File: Executing InitTarget()
T7024 14933:098.496   SWD selected. Executing JTAG -> SWD switching sequence.
T7024 14933:101.568   DAP initialized successfully.
T7024 14933:112.832   InitTarget() end - Took 14.6ms
T7024 14933:112.832   Found SW-DP with ID 0x6BA02477
T7024 14933:116.928   DPIDR: 0x6BA02477
T7024 14933:116.928   CoreSight SoC-400 or earlier
T7024 14933:116.928   Scanning AP map to find all available APs
T7024 14933:116.928   AP[3]: Stopped AP scan as end of AP map has been reached
T7024 14933:116.928   AP[0]: AHB-AP (IDR: 0x84770001, ADDR: 0x00000000)
T7024 14933:116.928   AP[1]: AHB-AP (IDR: 0x84770001, ADDR: 0x01000000)
T7024 14933:117.952   AP[2]: APB-AP (IDR: 0x54770002, ADDR: 0x02000000)
T7024 14933:117.952   Iterating through AP map to find AHB-AP to use
T7024 14933:117.952   AP[0]: Core found
T7024 14933:117.952   AP[0]: AHB-AP ROM base: 0xE00FE000
T7024 14933:117.952   CPUID register: 0x411FC272. Implementer code: 0x41 (ARM)
T7024 14933:117.952   Cache: L1 I/D-cache present
T7024 14933:120.000   Found Cortex-M7 r1p2, Little endian.
T7024 14933:120.000   -- Max. mem block: 0x00005CF8
T7024 14933:120.000   CPU_ReadMem(4 bytes @ 0xE000EDF0)
T7024 14933:121.024   CPU_ReadMem(4 bytes @ 0xE0002000)
T7024 14933:121.024   FPUnit: 8 code (BP) slots and 0 literal slots
T7024 14933:121.024   CPU_ReadMem(4 bytes @ 0xE000EDFC)
T7024 14933:121.024   CPU_WriteMem(4 bytes @ 0xE000EDFC)
T7024 14933:123.072   CPU_ReadMem(4 bytes @ 0xE0001000)
T7024 14933:123.072   CPU_WriteMem(4 bytes @ 0xE0001000)
T7024 14933:123.072   CPU_ReadMem(4 bytes @ 0xE000ED88)
T7024 14933:123.072   CPU_WriteMem(4 bytes @ 0xE000ED88)
T7024 14933:125.120   CPU_ReadMem(4 bytes @ 0xE000ED88)
T7024 14933:125.120   CPU_WriteMem(4 bytes @ 0xE000ED88)
T7024 14933:125.120   CoreSight components:
T7024 14933:125.120   ROMTbl[0] @ E00FE000
T7024 14933:125.120   CPU_ReadMem(64 bytes @ 0xE00FE000)
T7024 14933:126.144   CPU_ReadMem(32 bytes @ 0xE00FFFE0)
T7024 14933:126.144   [0][0]: E00FF000 CID B105100D PID 000BB4C7 ROM Table
T7024 14933:126.144   ROMTbl[1] @ E00FF000
T7024 14933:126.144   CPU_ReadMem(64 bytes @ 0xE00FF000)
T7024 14933:126.144   CPU_ReadMem(32 bytes @ 0xE000EFE0)
T7024 14933:126.144   [1][0]: E000E000 CID B105E00D PID 000BB00C SCS-M7
T7024 14933:126.144   CPU_ReadMem(32 bytes @ 0xE0001FE0)
T7024 14933:128.192   [1][1]: E0001000 CID B105E00D PID 000BB002 DWT
T7024 14933:128.192   CPU_ReadMem(32 bytes @ 0xE0002FE0)
T7024 14933:128.192   [1][2]: E0002000 CID B105E00D PID 000BB00E FPB-M7
T7024 14933:128.192   CPU_ReadMem(32 bytes @ 0xE0000FE0)
T7024 14933:128.192   [1][3]: E0000000 CID B105E00D PID 000BB001 ITM
T7024 14933:128.192   CPU_ReadMem(32 bytes @ 0xE0041FE0)
T7024 14933:128.192   [0][1]: E0041000 CID B105900D PID 001BB975 ETM-M7
T7024 14933:128.192   CPU_ReadMem(32 bytes @ 0xE0043FE0)
T7024 14933:129.216   [0][2]: E0043000 CID B105900D PID 004BB906 CTI
T7024 14933:129.216   CPU_WriteMem(4 bytes @ 0xE000ED84)
T7024 14933:129.216   CPU_ReadMem(4 bytes @ 0xE000ED80)
T7024 14933:129.216   I-Cache L1: 32 KB, 512 Sets, 32 Bytes/Line, 2-Way
T7024 14933:129.216   CPU_WriteMem(4 bytes @ 0xE000ED84)
T7024 14933:129.216   CPU_ReadMem(4 bytes @ 0xE000ED80)
T7024 14933:131.264   D-Cache L1: 32 KB, 256 Sets, 32 Bytes/Line, 4-Way
T7024 14933:131.264 - 32.806ms returns 0x6BA02477
T7024 14933:131.264 JLINK_GetDLLVersion()
T7024 14933:131.264 - 0.005ms returns 92800
T7024 14933:131.264 JLINK_CORE_GetFound()
T7024 14933:131.264 - 0.006ms returns 0xE0100FF
T7024 14933:131.264 JLINK_GetDebugInfo(0x100 = JLINKARM_ROM_TABLE_ADDR_INDEX)
T7024 14933:131.264   Value=0xE00FE000
T7024 14933:131.264 - 0.012ms returns 0
T7024 14933:131.264 JLINK_GetDebugInfo(0x100 = JLINKARM_ROM_TABLE_ADDR_INDEX)
T7024 14933:131.264   Value=0xE00FE000
T7024 14933:131.264 - 0.012ms returns 0
T7024 14933:131.264 JLINK_GetDebugInfo(0x101 = JLINKARM_DEBUG_INFO_ETM_ADDR_INDEX)
T7024 14933:131.264   Value=0xE0041000
T7024 14933:131.264 - 0.015ms returns 0
T7024 14933:131.264 JLINK_ReadMemEx(0xE0041FD0, 0x20 Bytes, Flags = 0x02000004)
T7024 14933:131.264   CPU_ReadMem(32 bytes @ 0xE0041FD0)
T7024 14933:131.264   Data:  04 00 00 00 00 00 00 00 00 00 00 00 00 00 00 00 ...
T7024 14933:131.264 - 0.444ms returns 32 (0x20)
T7024 14933:131.264 JLINK_GetDebugInfo(0x102 = JLINKARM_DEBUG_INFO_MTB_ADDR_INDEX)
T7024 14933:131.264   Value=0x00000000
T7024 14933:131.264 - 0.017ms returns 0
T7024 14933:131.264 JLINK_GetDebugInfo(0x103 = JLINKARM_DEBUG_INFO_TPIU_ADDR_INDEX)
T7024 14933:131.264   Value=0xE00F5000
T7024 14933:131.264 - 0.016ms returns 0
T7024 14933:131.264 JLINK_GetDebugInfo(0x104 = JLINKARM_DEBUG_INFO_ITM_ADDR_INDEX)
T7024 14933:131.264   Value=0xE0000000
T7024 14933:131.264 - 0.017ms returns 0
T7024 14933:131.264 JLINK_GetDebugInfo(0x105 = JLINKARM_DEBUG_INFO_DWT_ADDR_INDEX)
T7024 14933:131.264   Value=0xE0001000
T7024 14933:131.264 - 0.016ms returns 0
T7024 14933:131.264 JLINK_GetDebugInfo(0x106 = JLINKARM_DEBUG_INFO_FPB_ADDR_INDEX)
T7024 14933:131.264   Value=0xE0002000
T7024 14933:131.264 - 0.016ms returns 0
T7024 14933:131.264 JLINK_GetDebugInfo(0x107 = JLINKARM_DEBUG_INFO_NVIC_ADDR_INDEX)
T7024 14933:131.264   Value=0xE000E000
T7024 14933:131.264 - 0.016ms returns 0
T7024 14933:131.264 JLINK_GetDebugInfo(0x10C = JLINKARM_DEBUG_INFO_DBG_ADDR_INDEX)
T7024 14933:131.264   Value=0xE000EDF0
T7024 14933:131.264 - 0.016ms returns 0
T7024 14933:131.264 JLINK_GetDebugInfo(0x01 = Unknown)
T7024 14933:131.264   Value=0x00000001
T7024 14933:131.264 - 0.016ms returns 0
T7024 14933:131.264 JLINK_ReadMemU32(0xE000ED00, 0x1 Items)
T7024 14933:131.264   CPU_ReadMem(4 bytes @ 0xE000ED00)
T7024 14933:133.312   Data:  72 C2 1F 41
T7024 14933:133.312   Debug reg: CPUID
T7024 14933:133.312 - 0.412ms returns 1 (0x1)
T7024 14933:133.312 JLINK_GetDebugInfo(0x10F = JLINKARM_DEBUG_INFO_HAS_CORTEX_M_SECURITY_EXT_INDEX)
T7024 14933:133.312   Value=0x00000000
T7024 14933:133.312 - 0.012ms returns 0
T7024 14933:133.312 JLINK_HasError()
T7024 14933:133.312 JLINK_SetResetType(JLINKARM_CM3_RESET_TYPE_NORMAL)
T7024 14933:133.312 - 0.005ms returns JLINKARM_CM3_RESET_TYPE_NORMAL
T7024 14933:133.312 JLINK_Reset()
T7024 14933:133.312   JLINK_GetResetTypeDesc
T7024 14933:133.312   - 0.005ms 
T7024 14933:133.312   Reset type: NORMAL (https://kb.segger.com/J-Link_Reset_Strategies)
T7024 14933:133.312   CPU is running
T7024 14933:133.312   CPU_WriteMem(4 bytes @ 0xE000EDF0)
T7024 14933:133.312   CPU is running
T7024 14933:133.312   CPU_WriteMem(4 bytes @ 0xE000EDFC)
T7024 14933:133.312   Reset: Halt core after reset via DEMCR.VC_CORERESET.
T7024 14933:134.336   Reset: Reset device via AIRCR.SYSRESETREQ.
T7024 14933:134.336   CPU is running
T7024 14933:134.336   CPU_WriteMem(4 bytes @ 0xE000ED0C)
T7024 14933:186.560   CPU_ReadMem(4 bytes @ 0xE000EDF0)
T7024 14933:188.608   CPU_ReadMem(4 bytes @ 0xE000EDF0)
T7024 14933:190.656   CPU_WriteMem(4 bytes @ 0xE000EDFC)
T7024 14933:196.800   CPU_ReadMem(4 bytes @ 0xE000EDF0)
T7024 14933:198.848   CPU_WriteMem(4 bytes @ 0xE0002000)
T7024 14933:198.848   CPU_ReadMem(4 bytes @ 0xE000EDFC)
T7024 14933:198.848   CPU_ReadMem(4 bytes @ 0xE0001000)
T7024 14933:199.872 - 67.301ms 
T7024 14933:199.872 JLINK_HasError()
T7024 14933:199.872 JLINK_ReadReg(R15 (PC))
T7024 14933:199.872 - 0.007ms returns 0x080002E0
T7024 14933:199.872 JLINK_ReadReg(XPSR)
T7024 14933:199.872 - 0.004ms returns 0x01000000
T7024 14933:199.872 JLINK_Halt()
T7024 14933:199.872 - 0.019ms returns 0x00
T7024 14933:199.872 JLINK_ReadMemU32(0xE000EDF0, 0x1 Items)
T7024 14933:199.872   CPU_ReadMem(4 bytes @ 0xE000EDF0)
T7024 14933:199.872   Data:  03 00 03 00
T7024 14933:199.872   Debug reg: DHCSR
T7024 14933:199.872 - 0.417ms returns 1 (0x1)
T7024 14933:199.872 JLINK_WriteU32(0xE000EDF0, 0xA05F0003)
T7024 14933:199.872   Debug reg: DHCSR
T7024 14933:199.872   CPU_WriteMem(4 bytes @ 0xE000EDF0)
T7024 14933:199.872 - 0.581ms returns 0 (0x00000000)
T7024 14933:199.872 JLINK_WriteU32(0xE000EDFC, 0x01000000)
T7024 14933:199.872   Debug reg: DEMCR
T7024 14933:199.872   CPU_WriteMem(4 bytes @ 0xE000EDFC)
T7024 14933:201.920 - 0.380ms returns 0 (0x00000000)
T7024 14933:201.920 JLINK_GetHWStatus(...)
T7024 14933:201.920 - 0.328ms returns 0
T7024 14933:201.920 JLINK_GetNumBPUnits(Type = 0xFFFFFF00)
T7024 14933:201.920 - 0.009ms returns 0x08
T7024 14933:201.920 JLINK_GetNumBPUnits(Type = 0xF0)
T7024 14933:201.920 - 0.006ms returns 0x2000
T7024 14933:201.920 JLINK_GetNumWPUnits()
T7024 14933:201.920 - 0.006ms returns 4
T7024 14933:201.920 JLINK_GetSpeed()
T7024 14933:201.920 - 0.008ms returns 15000
T7024 14933:201.920 JLINK_ReadMemU32(0xE000E004, 0x1 Items)
T7024 14933:201.920   CPU_ReadMem(4 bytes @ 0xE000E004)
T7024 14933:201.920   Data:  05 00 00 00
T7024 14933:201.920 - 0.421ms returns 1 (0x1)
T7024 14933:201.920 JLINK_ReadMemU32(0xE000E004, 0x1 Items)
T7024 14933:201.920   CPU_ReadMem(4 bytes @ 0xE000E004)
T7024 14933:201.920   Data:  05 00 00 00
T7024 14933:201.920 - 0.395ms returns 1 (0x1)
T7024 14933:201.920 JLINK_WriteMemEx(0xE0001000, 0x0000001C Bytes, Flags = 0x02000004)
T7024 14933:201.920   Data:  01 00 00 00 00 00 00 00 00 00 00 00 00 00 00 00 ...
T7024 14933:201.920   CPU_WriteMem(28 bytes @ 0xE0001000)
T7024 14933:202.944 - 0.423ms returns 0x1C
T7024 14933:202.944 JLINK_HasError()
T7024 14933:202.944 JLINK_ReadReg(R15 (PC))
T7024 14933:202.944 - 0.005ms returns 0x080002E0
T7024 14933:202.944 JLINK_ReadReg(XPSR)
T7024 14933:202.944 - 0.004ms returns 0x01000000
T7024 14933:202.944 JLINK_WriteU32(0xE0041FB0, 0xC5ACCE55)
T7024 14933:202.944   Debug reg: ETMLAR
T7024 14933:202.944   CPU_WriteMem(4 bytes @ 0xE0041FB0)
T7024 14933:202.944 - 0.423ms returns 0 (0x00000000)
T7024 14933:202.944 JLINK_ReadMemU32(0xE0041000, 0x1 Items)
T7024 14933:202.944   CPU_ReadMem(4 bytes @ 0xE0041000)
T7024 14933:202.944   Data:  00 00 00 00
T7024 14933:202.944   Debug reg: ETM_CR
T7024 14933:202.944 - 0.387ms returns 1 (0x1)
T7024 14933:207.040 JLINK_SWO_Control(JLINKARM_SWO_CMD_GET_SPEED_INFO, ...)
T7024 14933:208.064 - 0.359ms returns 0x00
T7024 14933:208.064 JLINK_SWO_Control(JLINKARM_SWO_CMD_STOP, ...)
T7024 14933:208.064 - 0.007ms returns 0x00
T7024 14933:208.064 JLINK_SWO_Control(JLINKARM_SWO_CMD_START, ...)
T7024 14933:208.064    -- UART
T7024 14933:208.064    -- 10000000bps
T7024 14933:208.064 - 1.402ms returns 0x00
T7024 14933:208.064 JLINK_WriteU32(0xE00F5004, 0x00000001)
T7024 14933:210.112   CPU_WriteMem(4 bytes @ 0xE00F5004)
T7024 14933:210.112 - 0.400ms returns 0 (0x00000000)
T7024 14933:210.112 JLINK_WriteU32(0xE00F5010, 0x00000000)
T7024 14933:210.112   CPU_WriteMem(4 bytes @ 0xE00F5010)
T7024 14933:210.112 - 0.359ms returns 0 (0x00000000)
T7024 14933:210.112 JLINK_WriteU32(0xE00F50F0, 0x00000002)
T7024 14933:210.112   CPU_WriteMem(4 bytes @ 0xE00F50F0)
T7024 14933:210.112 - 0.362ms returns 0 (0x00000000)
T7024 14933:210.112 JLINK_WriteU32(0xE00F5304, 0x00000000)
T7024 14933:210.112   CPU_WriteMem(4 bytes @ 0xE00F5304)
T7024 14933:210.112 - 0.345ms returns 0 (0x00000000)
T7024 14933:210.112 JLINK_WriteU32(0xE0000FB0, 0xC5ACCE55)
T7024 14933:210.112   Debug reg: ITM_LOCKACCESS
T7024 14933:210.112   CPU_WriteMem(4 bytes @ 0xE0000FB0)
T7024 14933:211.136 - 0.384ms returns 0 (0x00000000)
T7024 14933:211.136 JLINK_WriteU32(0xE0000E80, 0x0001000D)
T7024 14933:211.136   Debug reg: ITM_TCR
T7024 14933:211.136 - 0.015ms returns 0 (0x00000000)
T7024 14933:211.136 JLINK_WriteU32(0xE0000E00, 0xFFFFFFFF)
T7024 14933:211.136   Debug reg: ITM_TER
T7024 14933:211.136 - 0.012ms returns 0 (0x00000000)
T7024 14933:211.136 JLINK_WriteU32(0xE0000E40, 0x00000008)
T7024 14933:211.136   Debug reg: ITM_TPR
T7024 14933:211.136 - 0.012ms returns 0 (0x00000000)
T7024 14933:211.136 JLINK_WriteU32(0xE0001000, 0x0001061F)
T7024 14933:211.136   Debug reg: DWT_CTRL
T7024 14933:211.136   CPU_WriteMem(4 bytes @ 0xE0001000)
T7024 14933:211.136 - 0.354ms returns 0 (0x00000000)
T7024 14933:239.808 JLINK_ReadMemEx(0xE0001004, 0x4 Bytes, Flags = 0x02000000)
T7024 14933:239.808   Data:  00 00 00 00
T7024 14933:239.808   Debug reg: DWT_CYCCNT
T7024 14933:239.808 - 0.044ms returns 4 (0x4)
T7024 14933:259.264 JLINK_WriteMemEx(0x38000000, 0x00001000 Bytes, Flags = 0x02000000)
T7024 14933:259.264   Data:  00 00 00 00 00 00 00 00 00 00 00 00 00 00 00 00 ...
T7024 14933:260.288   CPU_WriteMem(4096 bytes @ 0x38000000)
T7024 14933:265.408 - 5.519ms returns 0x1000
T7024 14933:265.408 JLINK_WriteMemEx(0x38001000, 0x00001000 Bytes, Flags = 0x02000000)
T7024 14933:265.408   Data:  00 00 00 00 00 00 00 00 00 00 00 00 00 00 00 00 ...
T7024 14933:265.408   CPU_WriteMem(4096 bytes @ 0x38001000)
T7024 14933:270.528 - 5.369ms returns 0x1000
T7024 14933:272.576 JLINK_WriteMemEx(0x38002000, 0x00001000 Bytes, Flags = 0x02000000)
T7024 14933:272.576   Data:  00 00 00 00 00 00 00 00 00 00 00 00 00 00 00 00 ...
T7024 14933:272.576   CPU_WriteMem(4096 bytes @ 0x38002000)
T7024 14933:276.672 - 5.319ms returns 0x1000
T7024 14933:276.672 JLINK_WriteMemEx(0x38003000, 0x00000EA8 Bytes, Flags = 0x02000000)
T7024 14933:276.672   Data:  00 00 00 00 00 00 00 00 00 00 00 00 00 00 00 00 ...
T7024 14933:276.672   CPU_WriteMem(3752 bytes @ 0x38003000)
T7024 14933:281.792 - 4.816ms returns 0xEA8
T7024 14933:347.328 JLINK_HasError()
T7024 14933:347.328 JLINK_SetResetType(JLINKARM_CM3_RESET_TYPE_NORMAL)
T7024 14933:347.328 - 0.008ms returns JLINKARM_CM3_RESET_TYPE_NORMAL
T7024 14933:347.328 JLINK_Reset()
T7024 14933:347.328   CPU_WriteMem(4 bytes @ 0xE0000E00)
T7024 14933:347.328   CPU_WriteMem(4 bytes @ 0xE0000E40)
T7024 14933:347.328   CPU_WriteMem(4 bytes @ 0xE0000E80)
T7024 14933:347.328   JLINK_GetResetTypeDesc
T7024 14933:347.328   - 0.011ms 
T7024 14933:347.328   Reset type: NORMAL (https://kb.segger.com/J-Link_Reset_Strategies)
T7024 14933:347.328   CPU_WriteMem(4 bytes @ 0xE000EDF0)
T7024 14933:349.376   CPU_WriteMem(4 bytes @ 0xE000EDFC)
T7024 14933:349.376   Reset: Halt core after reset via DEMCR.VC_CORERESET.
T7024 14933:349.376   Reset: Reset device via AIRCR.SYSRESETREQ.
T7024 14933:349.376   CPU_WriteMem(4 bytes @ 0xE000ED0C)
T7024 14933:404.672   CPU_ReadMem(4 bytes @ 0xE000EDF0)
T7024 14933:404.672   CPU_ReadMem(4 bytes @ 0xE000EDF0)
T7024 14933:404.672   CPU_WriteMem(4 bytes @ 0xE000EDFC)
T7024 14933:411.840   CPU_ReadMem(4 bytes @ 0xE000EDF0)
T7024 14933:412.864   CPU_WriteMem(4 bytes @ 0xE0002000)
T7024 14933:414.912   CPU_ReadMem(4 bytes @ 0xE000EDFC)
T7024 14933:414.912   CPU_ReadMem(4 bytes @ 0xE0001000)
T7024 14933:414.912 - 67.266ms 
T7024 14933:414.912 JLINK_WriteU32(0xE000EDFC, 0x01000000)
T7024 14933:414.912   Debug reg: DEMCR
T7024 14933:414.912   CPU_WriteMem(4 bytes @ 0xE000EDFC)
T7024 14933:414.912 - 0.394ms returns 0 (0x00000000)
T7024 14933:414.912 JLINK_HasError()
T7024 14933:415.936 JLINK_ReadReg(R15 (PC))
T7024 14933:415.936 - 0.005ms returns 0x080002E0
T7024 14933:415.936 JLINK_ReadReg(XPSR)
T7024 14933:415.936 - 0.004ms returns 0x01000000
T7024 14933:423.104 JLINK_ReadMemEx(0x080002CC, 0x3C Bytes, Flags = 0x02000000)
T7024 14933:423.104   CPU_ReadMem(128 bytes @ 0x080002C0)
T7024 14933:423.104    -- Updating C cache (128 bytes @ 0x080002C0)
T7024 14933:423.104    -- Read from C cache (60 bytes @ 0x080002CC)
T7024 14933:423.104   Data:  DF F8 0C D0 00 F0 48 FA 00 48 00 47 45 58 00 08 ...
T7024 14933:423.104 - 0.547ms returns 60 (0x3C)
T7024 14933:423.104 JLINK_ReadMemEx(0x080002CC, 0x2 Bytes, Flags = 0x02000000)
T7024 14933:423.104    -- Read from C cache (2 bytes @ 0x080002CC)
T7024 14933:423.104   Data:  DF F8
T7024 14933:423.104 - 0.019ms returns 2 (0x2)
T7024 14933:423.104 JLINK_ReadMemEx(0x080002CE, 0x2 Bytes, Flags = 0x02000000)
T7024 14933:423.104    -- Read from C cache (2 bytes @ 0x080002CE)
T7024 14933:423.104   Data:  0C D0
T7024 14933:423.104 - 0.019ms returns 2 (0x2)
T7024 14933:423.104 JLINK_ReadMemEx(0x080002D0, 0x3C Bytes, Flags = 0x02000000)
T7024 14933:423.104    -- Read from C cache (60 bytes @ 0x080002D0)
T7024 14933:423.104   Data:  00 F0 48 FA 00 48 00 47 45 58 00 08 10 08 00 24 ...
T7024 14933:423.104 - 0.019ms returns 60 (0x3C)
T7024 14933:423.104 JLINK_ReadMemEx(0x080002D0, 0x2 Bytes, Flags = 0x02000000)
T7024 14933:423.104    -- Read from C cache (2 bytes @ 0x080002D0)
T7024 14933:423.104   Data:  00 F0
T7024 14933:423.104 - 0.022ms returns 2 (0x2)
T7024 14933:423.104 JLINK_ReadMemEx(0x080002D2, 0x2 Bytes, Flags = 0x02000000)
T7024 14933:423.104    -- Read from C cache (2 bytes @ 0x080002D2)
T7024 14933:423.104   Data:  48 FA
T7024 14933:423.104 - 0.018ms returns 2 (0x2)
T7024 14933:423.104 JLINK_ReadMemEx(0x080002D4, 0x3C Bytes, Flags = 0x02000000)
T7024 14933:423.104    -- Read from C cache (60 bytes @ 0x080002D4)
T7024 14933:423.104   Data:  00 48 00 47 45 58 00 08 10 08 00 24 06 48 80 47 ...
T7024 14933:423.104 - 0.050ms returns 60 (0x3C)
T7024 14933:423.104 JLINK_ReadMemEx(0x080002D4, 0x2 Bytes, Flags = 0x02000000)
T7024 14933:423.104    -- Read from C cache (2 bytes @ 0x080002D4)
T7024 14933:423.104   Data:  00 48
T7024 14933:423.104 - 0.036ms returns 2 (0x2)
T7024 14933:423.104 JLINK_ReadMemEx(0x080002D6, 0x2 Bytes, Flags = 0x02000000)
T7024 14933:423.104    -- Read from C cache (2 bytes @ 0x080002D6)
T7024 14933:423.104   Data:  00 47
T7024 14933:423.104 - 0.019ms returns 2 (0x2)
T7024 14933:423.104 JLINK_ReadMemEx(0x080002D6, 0x2 Bytes, Flags = 0x02000000)
T7024 14933:424.128    -- Read from C cache (2 bytes @ 0x080002D6)
T7024 14933:424.128   Data:  00 47
T7024 14933:424.128 - 0.018ms returns 2 (0x2)
T7024 14933:424.128 JLINK_ReadMemEx(0x080002D8, 0x3C Bytes, Flags = 0x02000000)
T7024 14933:424.128    -- Read from C cache (60 bytes @ 0x080002D8)
T7024 14933:424.128   Data:  45 58 00 08 10 08 00 24 06 48 80 47 06 48 00 47 ...
T7024 14933:424.128 - 0.019ms returns 60 (0x3C)
T7024 14933:424.128 JLINK_ReadMemEx(0x080002D8, 0x2 Bytes, Flags = 0x02000000)
T7024 14933:424.128    -- Read from C cache (2 bytes @ 0x080002D8)
T7024 14933:424.128   Data:  45 58
T7024 14933:424.128 - 0.018ms returns 2 (0x2)
T7024 14933:424.128 JLINK_ReadMemEx(0x080002DC, 0x3C Bytes, Flags = 0x02000000)
T7024 14933:424.128    -- Read from C cache (60 bytes @ 0x080002DC)
T7024 14933:424.128   Data:  10 08 00 24 06 48 80 47 06 48 00 47 FE E7 FE E7 ...
T7024 14933:424.128 - 0.027ms returns 60 (0x3C)
T7024 14933:424.128 JLINK_ReadMemEx(0x080002DC, 0x2 Bytes, Flags = 0x02000000)
T7024 14933:424.128    -- Read from C cache (2 bytes @ 0x080002DC)
T7024 14933:424.128   Data:  10 08
T7024 14933:424.128 - 0.018ms returns 2 (0x2)
T7024 14933:424.128 JLINK_ReadMemEx(0x080002DE, 0x2 Bytes, Flags = 0x02000000)
T7024 14933:424.128    -- Read from C cache (2 bytes @ 0x080002DE)
T7024 14933:424.128   Data:  00 24
T7024 14933:424.128 - 0.018ms returns 2 (0x2)
T7024 14933:424.128 JLINK_ReadMemEx(0x080002DE, 0x2 Bytes, Flags = 0x02000000)
T7024 14933:424.128    -- Read from C cache (2 bytes @ 0x080002DE)
T7024 14933:424.128   Data:  00 24
T7024 14933:424.128 - 0.019ms returns 2 (0x2)
T7024 14933:424.128 JLINK_ReadMemEx(0x080002E0, 0x3C Bytes, Flags = 0x02000000)
T7024 14933:424.128    -- Read from C cache (60 bytes @ 0x080002E0)
T7024 14933:424.128   Data:  06 48 80 47 06 48 00 47 FE E7 FE E7 FE E7 FE E7 ...
T7024 14933:424.128 - 0.019ms returns 60 (0x3C)
T7024 14933:424.128 JLINK_ReadMemEx(0x080002E0, 0x2 Bytes, Flags = 0x02000000)
T7024 14933:424.128    -- Read from C cache (2 bytes @ 0x080002E0)
T7024 14933:424.128   Data:  06 48
T7024 14933:424.128 - 0.018ms returns 2 (0x2)
T7024 14933:424.128 JLINK_ReadMemEx(0x080002E0, 0x3C Bytes, Flags = 0x02000000)
T7024 14933:424.128    -- Read from C cache (60 bytes @ 0x080002E0)
T7024 14933:424.128   Data:  06 48 80 47 06 48 00 47 FE E7 FE E7 FE E7 FE E7 ...
T7024 14933:424.128 - 0.019ms returns 60 (0x3C)
T7024 14933:424.128 JLINK_ReadMemEx(0x080002E0, 0x2 Bytes, Flags = 0x02000000)
T7024 14933:424.128    -- Read from C cache (2 bytes @ 0x080002E0)
T7024 14933:424.128   Data:  06 48
T7024 14933:424.128 - 0.018ms returns 2 (0x2)
T7024 14933:424.128 JLINK_ReadMemEx(0x080002E2, 0x2 Bytes, Flags = 0x02000000)
T7024 14933:424.128    -- Read from C cache (2 bytes @ 0x080002E2)
T7024 14933:424.128   Data:  80 47
T7024 14933:424.128 - 0.018ms returns 2 (0x2)
T7024 14933:424.128 JLINK_ReadMemEx(0x080002E2, 0x2 Bytes, Flags = 0x02000000)
T7024 14933:424.128    -- Read from C cache (2 bytes @ 0x080002E2)
T7024 14933:424.128   Data:  80 47
T7024 14933:424.128 - 0.021ms returns 2 (0x2)
T7024 14933:424.128 JLINK_ReadMemEx(0x080002E4, 0x3C Bytes, Flags = 0x02000000)
T7024 14933:424.128    -- Read from C cache (60 bytes @ 0x080002E4)
T7024 14933:424.128   Data:  06 48 00 47 FE E7 FE E7 FE E7 FE E7 FE E7 FE E7 ...
T7024 14933:424.128 - 0.019ms returns 60 (0x3C)
T7024 14933:424.128 JLINK_ReadMemEx(0x080002E4, 0x2 Bytes, Flags = 0x02000000)
T7024 14933:424.128    -- Read from C cache (2 bytes @ 0x080002E4)
T7024 14933:424.128   Data:  06 48
T7024 14933:424.128 - 0.018ms returns 2 (0x2)
T7024 14933:424.128 JLINK_ReadMemEx(0x080002E4, 0x3C Bytes, Flags = 0x02000000)
T7024 14933:424.128    -- Read from C cache (60 bytes @ 0x080002E4)
T7024 14933:424.128   Data:  06 48 00 47 FE E7 FE E7 FE E7 FE E7 FE E7 FE E7 ...
T7024 14933:424.128 - 0.019ms returns 60 (0x3C)
T7024 14933:424.128 JLINK_ReadMemEx(0x080002E4, 0x2 Bytes, Flags = 0x02000000)
T7024 14933:424.128    -- Read from C cache (2 bytes @ 0x080002E4)
T7024 14933:424.128   Data:  06 48
T7024 14933:424.128 - 0.018ms returns 2 (0x2)
T7024 14933:424.128 JLINK_ReadMemEx(0x080002E6, 0x2 Bytes, Flags = 0x02000000)
T7024 14933:424.128    -- Read from C cache (2 bytes @ 0x080002E6)
T7024 14933:424.128   Data:  00 47
T7024 14933:424.128 - 0.018ms returns 2 (0x2)
T7024 14933:655.552 JLINK_WriteU32(0xE0001008, 0x00000000)
T7024 14933:655.552   Debug reg: DWT_CPICNT
T7024 14933:655.552 - 0.039ms returns 0 (0x00000000)
T7024 14933:655.552 JLINK_WriteU32(0xE000100C, 0x00000000)
T7024 14933:655.552   Debug reg: DWT_EXCCNT
T7024 14933:655.552 - 0.015ms returns 0 (0x00000000)
T7024 14933:655.552 JLINK_WriteU32(0xE0001010, 0x00000000)
T7024 14933:655.552   Debug reg: DWT_SLEEPCNT
T7024 14933:655.552 - 0.016ms returns 0 (0x00000000)
T7024 14933:655.552 JLINK_WriteU32(0xE0001014, 0x00000000)
T7024 14933:655.552   Debug reg: DWT_LSUCNT
T7024 14933:655.552 - 0.014ms returns 0 (0x00000000)
T7024 14933:655.552 JLINK_WriteU32(0xE0001018, 0x00000000)
T7024 14933:655.552   Debug reg: DWT_FOLDCNT
T7024 14933:655.552 - 0.014ms returns 0 (0x00000000)
T7024 14936:000.512 JLINK_HasError()
T7024 14936:008.704 JLINK_ReadReg(R0)
T7024 14936:008.704 - 0.385ms returns 0x00000000
T7024 14936:008.704 JLINK_ReadReg(R1)
T7024 14936:008.704 - 0.005ms returns 0x00000000
T7024 14936:008.704 JLINK_ReadReg(R2)
T7024 14936:008.704 - 0.005ms returns 0x00000000
T7024 14936:008.704 JLINK_ReadReg(R3)
T7024 14936:008.704 - 0.004ms returns 0x00000000
T7024 14936:008.704 JLINK_ReadReg(R4)
T7024 14936:008.704 - 0.005ms returns 0x00000000
T7024 14936:008.704 JLINK_ReadReg(R5)
T7024 14936:008.704 - 0.004ms returns 0x00000000
T7024 14936:008.704 JLINK_ReadReg(R6)
T7024 14936:008.704 - 0.004ms returns 0x00000000
T7024 14936:008.704 JLINK_ReadReg(R7)
T7024 14936:008.704 - 0.004ms returns 0x00000000
T7024 14936:008.704 JLINK_ReadReg(R8)
T7024 14936:008.704 - 0.004ms returns 0x00000000
T7024 14936:008.704 JLINK_ReadReg(R9)
T7024 14936:008.704 - 0.004ms returns 0x00000000
T7024 14936:008.704 JLINK_ReadReg(R10)
T7024 14936:008.704 - 0.005ms returns 0x00000000
T7024 14936:008.704 JLINK_ReadReg(R11)
T7024 14936:008.704 - 0.005ms returns 0x00000000
T7024 14936:008.704 JLINK_ReadReg(R12)
T7024 14936:008.704 - 0.004ms returns 0x00000000
T7024 14936:008.704 JLINK_ReadReg(R13 (SP))
T7024 14936:008.704 - 0.005ms returns 0x24000810
T7024 14936:008.704 JLINK_ReadReg(R14)
T7024 14936:008.704 - 0.005ms returns 0xFFFFFFFF
T7024 14936:008.704 JLINK_ReadReg(R15 (PC))
T7024 14936:008.704 - 0.005ms returns 0x080002E0
T7024 14936:008.704 JLINK_ReadReg(XPSR)
T7024 14936:008.704 - 0.004ms returns 0x01000000
T7024 14936:008.704 JLINK_ReadReg(MSP)
T7024 14936:008.704 - 0.004ms returns 0x24000810
T7024 14936:008.704 JLINK_ReadReg(PSP)
T7024 14936:008.704 - 0.005ms returns 0x00000000
T7024 14936:008.704 JLINK_ReadReg(CFBP)
T7024 14936:008.704 - 0.005ms returns 0x00000000
T7024 14936:008.704 JLINK_ReadReg(FPSCR)
T7024 14936:009.728 - 1.690ms returns 0x00000000
T7024 14936:009.728 JLINK_ReadReg(FPS0)
T7024 14936:009.728 - 0.006ms returns 0x00000000
T7024 14936:009.728 JLINK_ReadReg(FPS1)
T7024 14936:009.728 - 0.005ms returns 0x00000000
T7024 14936:009.728 JLINK_ReadReg(FPS2)
T7024 14936:009.728 - 0.005ms returns 0x00000000
T7024 14936:009.728 JLINK_ReadReg(FPS3)
T7024 14936:009.728 - 0.004ms returns 0x00000000
T7024 14936:009.728 JLINK_ReadReg(FPS4)
T7024 14936:009.728 - 0.004ms returns 0x00000000
T7024 14936:009.728 JLINK_ReadReg(FPS5)
T7024 14936:009.728 - 0.004ms returns 0x00000000
T7024 14936:009.728 JLINK_ReadReg(FPS6)
T7024 14936:009.728 - 0.005ms returns 0x00000000
T7024 14936:009.728 JLINK_ReadReg(FPS7)
T7024 14936:009.728 - 0.005ms returns 0x00000000
T7024 14936:009.728 JLINK_ReadReg(FPS8)
T7024 14936:009.728 - 0.004ms returns 0x00000000
T7024 14936:009.728 JLINK_ReadReg(FPS9)
T7024 14936:009.728 - 0.005ms returns 0x00000000
T7024 14936:009.728 JLINK_ReadReg(FPS10)
T7024 14936:009.728 - 0.005ms returns 0x00000000
T7024 14936:009.728 JLINK_ReadReg(FPS11)
T7024 14936:009.728 - 0.004ms returns 0x00000000
T7024 14936:009.728 JLINK_ReadReg(FPS12)
T7024 14936:009.728 - 0.004ms returns 0x00000000
T7024 14936:009.728 JLINK_ReadReg(FPS13)
T7024 14936:009.728 - 0.004ms returns 0x00000000
T7024 14936:009.728 JLINK_ReadReg(FPS14)
T7024 14936:009.728 - 0.005ms returns 0x00000000
T7024 14936:009.728 JLINK_ReadReg(FPS15)
T7024 14936:009.728 - 0.005ms returns 0xFFFFFFFF
T7024 14936:009.728 JLINK_ReadReg(FPS16)
T7024 14936:009.728 - 0.005ms returns 0x00000000
T7024 14936:009.728 JLINK_ReadReg(FPS17)
T7024 14936:009.728 - 0.005ms returns 0x00000000
T7024 14936:009.728 JLINK_ReadReg(FPS18)
T7024 14936:009.728 - 0.005ms returns 0x00000000
T7024 14936:009.728 JLINK_ReadReg(FPS19)
T7024 14936:009.728 - 0.004ms returns 0x00000000
T7024 14936:009.728 JLINK_ReadReg(FPS20)
T7024 14936:009.728 - 0.004ms returns 0x00000000
T7024 14936:009.728 JLINK_ReadReg(FPS21)
T7024 14936:009.728 - 0.004ms returns 0x00000000
T7024 14936:009.728 JLINK_ReadReg(FPS22)
T7024 14936:009.728 - 0.005ms returns 0x00000000
T7024 14936:009.728 JLINK_ReadReg(FPS23)
T7024 14936:009.728 - 0.005ms returns 0x00000000
T7024 14936:009.728 JLINK_ReadReg(FPS24)
T7024 14936:009.728 - 0.005ms returns 0x00000000
T7024 14936:009.728 JLINK_ReadReg(FPS25)
T7024 14936:009.728 - 0.005ms returns 0x00000000
T7024 14936:009.728 JLINK_ReadReg(FPS26)
T7024 14936:009.728 - 0.005ms returns 0x00000000
T7024 14936:009.728 JLINK_ReadReg(FPS27)
T7024 14936:009.728 - 0.004ms returns 0x00000000
T7024 14936:009.728 JLINK_ReadReg(FPS28)
T7024 14936:009.728 - 0.004ms returns 0x00000000
T7024 14936:009.728 JLINK_ReadReg(FPS29)
T7024 14936:009.728 - 0.004ms returns 0x00000000
T7024 14936:009.728 JLINK_ReadReg(FPS30)
T7024 14936:009.728 - 0.005ms returns 0x00000000
T7024 14936:009.728 JLINK_ReadReg(FPS31)
T7024 14936:009.728 - 0.005ms returns 0xFFFFFFFF
T2960 14936:078.336 JLINK_ReadMemEx(0x080002E0, 0x2 Bytes, Flags = 0x02000000)
T2960 14936:078.336    -- Read from C cache (2 bytes @ 0x080002E0)
T2960 14936:078.336   Data:  06 48
T2960 14936:078.336 - 0.041ms returns 2 (0x2)
T2960 14936:078.336 JLINK_HasError()
T2960 14936:078.336 JLINK_SetBPEx(Addr = 0x08005844, Type = 0xFFFFFFF2)
T2960 14936:078.336 - 0.007ms returns 0x00000001
T2960 14936:078.336 JLINK_HasError()
T2960 14936:078.336 JLINK_SetBPEx(Addr = 0x0800197A, Type = 0xFFFFFFF2)
T2960 14936:078.336 - 0.005ms returns 0x00000002
T2960 14936:078.336 JLINK_HasError()
T2960 14936:078.336 JLINK_HasError()
T2960 14936:078.336 JLINK_ReadMemU32(0xE0001004, 0x1 Items)
T2960 14936:078.336   Data:  00 00 00 00
T2960 14936:078.336   Debug reg: DWT_CYCCNT
T2960 14936:078.336 - 0.033ms returns 1 (0x1)
T2960 14936:078.336 JLINK_WriteU32(0xE0001004, 0x000003FF)
T2960 14936:078.336   Debug reg: DWT_CYCCNT
T2960 14936:078.336 - 0.023ms returns 0 (0x00000000)
T2960 14936:078.336 JLINK_WriteU32(0xE0001000, 0x0041061F)
T2960 14936:078.336   Debug reg: DWT_CTRL
T2960 14936:078.336   CPU_WriteMem(4 bytes @ 0xE0001000)
T2960 14936:078.336 - 0.473ms returns 0 (0x00000000)
T2960 14936:078.336 JLINK_WriteU32(0xE0000E80, 0x0001000F)
T2960 14936:078.336   Debug reg: ITM_TCR
T2960 14936:078.336 - 0.016ms returns 0 (0x00000000)
T2960 14936:078.336 JLINK_SWO_Control(JLINKARM_SWO_CMD_GET_NUM_BYTES, ...)
T2960 14936:078.336 - 0.006ms returns 0x01
T2960 14936:078.336 JLINK_SWO_Control(JLINKARM_SWO_CMD_FLUSH, ...)
T2960 14936:078.336 - 0.005ms returns 0x00
T2960 14936:078.336 JLINK_Go()
T2960 14936:078.336   CPU_WriteMem(4 bytes @ 0xE0002000)
T2960 14936:078.336   CPU_WriteMem(4 bytes @ 0xE0002000)
T2960 14936:078.336   CPU_ReadMem(4 bytes @ 0xE0001000)
T2960 14936:080.384   CPU_WriteMem(4 bytes @ 0xE0000E80)
T2960 14936:080.384   CPU_WriteMem(4 bytes @ 0xE0001008)
T2960 14936:080.384   CPU_WriteMem(4 bytes @ 0xE000100C)
T2960 14936:080.384   CPU_WriteMem(4 bytes @ 0xE0001010)
T2960 14936:080.384   CPU_WriteMem(4 bytes @ 0xE0001014)
T2960 14936:080.384   CPU_WriteMem(4 bytes @ 0xE0001018)
T2960 14936:080.384   CPU_WriteMem(4 bytes @ 0xE0002008)
T2960 14936:080.384   CPU_WriteMem(4 bytes @ 0xE000200C)
T2960 14936:080.384   CPU_WriteMem(4 bytes @ 0xE0002010)
T2960 14936:080.384   CPU_WriteMem(4 bytes @ 0xE0002014)
T2960 14936:080.384   CPU_WriteMem(4 bytes @ 0xE0002018)
T2960 14936:080.384   CPU_WriteMem(4 bytes @ 0xE000201C)
T2960 14936:080.384   CPU_WriteMem(4 bytes @ 0xE0002020)
T2960 14936:080.384   CPU_WriteMem(4 bytes @ 0xE0002024)
T2960 14936:080.384   CPU_WriteMem(4 bytes @ 0xE0001004)
T2960 14936:083.456   Memory map 'after startup completion point' is active
T2960 14936:083.456 - 4.351ms 
T2960 14936:083.456 JLINK_WriteU32(0xE0001000, 0x0001061F)
T2960 14936:083.456   Debug reg: DWT_CTRL
T2960 14936:083.456   CPU is running
T2960 14936:083.456   CPU_WriteMem(4 bytes @ 0xE0001000)
T2960 14936:083.456 - 0.404ms returns 0 (0x00000000)
T2960 14936:184.832 JLINK_SWO_Read(..., Offset = 0x00, NumBytes = 0x400000)
T2960 14936:184.832   Data: 
T2960 14936:184.832 - 0.026ms returns NumBytesRead = 0x00
T2960 14936:184.832 JLINK_SWO_Control(JLINKARM_SWO_CMD_FLUSH, ...)
T2960 14936:184.832 - 0.005ms returns 0x00
T2960 14936:184.832 JLINK_HasError()
T2960 14936:184.832 JLINK_IsHalted()
T2960 14936:186.880 - 1.352ms returns TRUE
T2960 14936:186.880 JLINK_HasError()
T2960 14936:186.880 JLINK_Halt()
T2960 14936:186.880 - 0.005ms returns 0x00
T2960 14936:186.880 JLINK_IsHalted()
T2960 14936:186.880 - 0.005ms returns TRUE
T2960 14936:186.880 JLINK_IsHalted()
T2960 14936:186.880 - 0.005ms returns TRUE
T2960 14936:186.880 JLINK_IsHalted()
T2960 14936:186.880 - 0.005ms returns TRUE
T2960 14936:186.880 JLINK_HasError()
T2960 14936:186.880 JLINK_ReadReg(R15 (PC))
T2960 14936:186.880 - 0.006ms returns 0x08005844
T2960 14936:186.880 JLINK_ReadReg(XPSR)
T2960 14936:186.880 - 0.005ms returns 0x61000000
T2960 14936:186.880 JLINK_SWO_Read(..., Offset = 0x00, NumBytes = 0x400000)
T2960 14936:186.880   Data: 
T2960 14936:186.880 - 0.012ms returns NumBytesRead = 0x00
T2960 14936:186.880 JLINK_SWO_Control(JLINKARM_SWO_CMD_FLUSH, ...)
T2960 14936:186.880 - 0.005ms returns 0x00
T2960 14936:186.880 JLINK_HasError()
T2960 14936:186.880 JLINK_ClrBPEx(BPHandle = 0x00000001)
T2960 14936:186.880 - 0.005ms returns 0x00
T2960 14936:186.880 JLINK_HasError()
T2960 14936:186.880 JLINK_ClrBPEx(BPHandle = 0x00000002)
T2960 14936:186.880 - 0.005ms returns 0x00
T2960 14936:186.880 JLINK_HasError()
T2960 14936:186.880 JLINK_HasError()
T2960 14936:186.880 JLINK_ReadMemU32(0xE000ED30, 0x1 Items)
T2960 14936:186.880   CPU_ReadMem(4 bytes @ 0xE000ED30)
T2960 14936:186.880   Data:  02 00 00 00
T2960 14936:186.880 - 0.386ms returns 1 (0x1)
T2960 14936:186.880 JLINK_ReadMemU32(0xE0001028, 0x1 Items)
T2960 14936:186.880   CPU_ReadMem(4 bytes @ 0xE0001028)
T2960 14936:186.880   Data:  00 00 00 00
T2960 14936:186.880   Debug reg: DWT_FUNC[0]
T2960 14936:186.880 - 0.346ms returns 1 (0x1)
T2960 14936:186.880 JLINK_ReadMemU32(0xE0001038, 0x1 Items)
T2960 14936:186.880   CPU_ReadMem(4 bytes @ 0xE0001038)
T2960 14936:186.880   Data:  00 02 00 00
T2960 14936:186.880   Debug reg: DWT_FUNC[1]
T2960 14936:186.880 - 0.427ms returns 1 (0x1)
T2960 14936:186.880 JLINK_ReadMemU32(0xE0001048, 0x1 Items)
T2960 14936:186.880   CPU_ReadMem(4 bytes @ 0xE0001048)
T2960 14936:188.928   Data:  00 00 00 00
T2960 14936:188.928   Debug reg: DWT_FUNC[2]
T2960 14936:188.928 - 0.418ms returns 1 (0x1)
T2960 14936:188.928 JLINK_ReadMemU32(0xE0001058, 0x1 Items)
T2960 14936:188.928   CPU_ReadMem(4 bytes @ 0xE0001058)
T2960 14936:188.928   Data:  00 00 00 00
T2960 14936:188.928   Debug reg: DWT_FUNC[3]
T2960 14936:188.928 - 0.369ms returns 1 (0x1)
T2960 14936:188.928 JLINK_HasError()
T2960 14936:188.928 JLINK_ReadReg(R0)
T2960 14936:188.928 - 0.008ms returns 0x08005845
T2960 14936:188.928 JLINK_ReadReg(R1)
T2960 14936:188.928 - 0.007ms returns 0x24000810
T2960 14936:188.928 JLINK_ReadReg(R2)
T2960 14936:188.928 - 0.007ms returns 0x00000000
T2960 14936:188.928 JLINK_ReadReg(R3)
T2960 14936:188.928 - 0.007ms returns 0x08005F45
T2960 14936:188.928 JLINK_ReadReg(R4)
T2960 14936:188.928 - 0.007ms returns 0x080068BC
T2960 14936:188.928 JLINK_ReadReg(R5)
T2960 14936:188.928 - 0.006ms returns 0x080068BC
T2960 14936:188.928 JLINK_ReadReg(R6)
T2960 14936:188.928 - 0.006ms returns 0x00000000
T2960 14936:188.928 JLINK_ReadReg(R7)
T2960 14936:188.928 - 0.006ms returns 0x00000000
T2960 14936:188.928 JLINK_ReadReg(R8)
T2960 14936:188.928 - 0.007ms returns 0x00000000
T2960 14936:188.928 JLINK_ReadReg(R9)
T2960 14936:188.928 - 0.007ms returns 0x00000000
T2960 14936:188.928 JLINK_ReadReg(R10)
T2960 14936:188.928 - 0.007ms returns 0x00000000
T2960 14936:188.928 JLINK_ReadReg(R11)
T2960 14936:188.928 - 0.007ms returns 0x00000000
T2960 14936:188.928 JLINK_ReadReg(R12)
T2960 14936:188.928 - 0.007ms returns 0x00000000
T2960 14936:188.928 JLINK_ReadReg(R13 (SP))
T2960 14936:188.928 - 0.007ms returns 0x24000810
T2960 14936:188.928 JLINK_ReadReg(R14)
T2960 14936:188.928 - 0.006ms returns 0x08000781
T2960 14936:188.928 JLINK_ReadReg(R15 (PC))
T2960 14936:188.928 - 0.007ms returns 0x08005844
T2960 14936:188.928 JLINK_ReadReg(XPSR)
T2960 14936:188.928 - 0.007ms returns 0x61000000
T2960 14936:188.928 JLINK_ReadReg(MSP)
T2960 14936:188.928 - 0.007ms returns 0x24000810
T2960 14936:188.928 JLINK_ReadReg(PSP)
T2960 14936:188.928 - 0.006ms returns 0x00000000
T2960 14936:188.928 JLINK_ReadReg(CFBP)
T2960 14936:188.928 - 0.007ms returns 0x00000000
T2960 14936:188.928 JLINK_ReadReg(FPSCR)
T2960 14936:189.952 - 1.802ms returns 0x00000000
T2960 14936:189.952 JLINK_ReadReg(FPS0)
T2960 14936:189.952 - 0.006ms returns 0x00000000
T2960 14936:189.952 JLINK_ReadReg(FPS1)
T2960 14936:189.952 - 0.004ms returns 0x00000000
T2960 14936:189.952 JLINK_ReadReg(FPS2)
T2960 14936:189.952 - 0.005ms returns 0x00000000
T2960 14936:189.952 JLINK_ReadReg(FPS3)
T2960 14936:189.952 - 0.005ms returns 0x00000000
T2960 14936:189.952 JLINK_ReadReg(FPS4)
T2960 14936:189.952 - 0.005ms returns 0x00000000
T2960 14936:189.952 JLINK_ReadReg(FPS5)
T2960 14936:189.952 - 0.005ms returns 0x00000000
T2960 14936:189.952 JLINK_ReadReg(FPS6)
T2960 14936:189.952 - 0.005ms returns 0x00000000
T2960 14936:192.000 JLINK_ReadReg(FPS7)
T2960 14936:192.000 - 0.006ms returns 0x00000000
T2960 14936:192.000 JLINK_ReadReg(FPS8)
T2960 14936:192.000 - 0.005ms returns 0x00000000
T2960 14936:192.000 JLINK_ReadReg(FPS9)
T2960 14936:192.000 - 0.005ms returns 0x00000000
T2960 14936:192.000 JLINK_ReadReg(FPS10)
T2960 14936:192.000 - 0.004ms returns 0x00000000
T2960 14936:192.000 JLINK_ReadReg(FPS11)
T2960 14936:192.000 - 0.005ms returns 0x00000000
T2960 14936:192.000 JLINK_ReadReg(FPS12)
T2960 14936:192.000 - 0.005ms returns 0x00000000
T2960 14936:192.000 JLINK_ReadReg(FPS13)
T2960 14936:192.000 - 0.005ms returns 0x00000000
T2960 14936:192.000 JLINK_ReadReg(FPS14)
T2960 14936:192.000 - 0.005ms returns 0x00000000
T2960 14936:192.000 JLINK_ReadReg(FPS15)
T2960 14936:192.000 - 0.005ms returns 0xFFFFFFFF
T2960 14936:192.000 JLINK_ReadReg(FPS16)
T2960 14936:192.000 - 0.007ms returns 0x00000000
T2960 14936:192.000 JLINK_ReadReg(FPS17)
T2960 14936:192.000 - 0.005ms returns 0x00000000
T2960 14936:192.000 JLINK_ReadReg(FPS18)
T2960 14936:192.000 - 0.005ms returns 0x00000000
T2960 14936:192.000 JLINK_ReadReg(FPS19)
T2960 14936:192.000 - 0.005ms returns 0x00000000
T2960 14936:192.000 JLINK_ReadReg(FPS20)
T2960 14936:192.000 - 0.005ms returns 0x00000000
T2960 14936:192.000 JLINK_ReadReg(FPS21)
T2960 14936:192.000 - 0.005ms returns 0x00000000
T2960 14936:192.000 JLINK_ReadReg(FPS22)
T2960 14936:192.000 - 0.005ms returns 0x00000000
T2960 14936:192.000 JLINK_ReadReg(FPS23)
T2960 14936:192.000 - 0.005ms returns 0x00000000
T2960 14936:192.000 JLINK_ReadReg(FPS24)
T2960 14936:192.000 - 0.005ms returns 0x00000000
T2960 14936:192.000 JLINK_ReadReg(FPS25)
T2960 14936:192.000 - 0.005ms returns 0x00000000
T2960 14936:192.000 JLINK_ReadReg(FPS26)
T2960 14936:192.000 - 0.004ms returns 0x00000000
T2960 14936:192.000 JLINK_ReadReg(FPS27)
T2960 14936:192.000 - 0.005ms returns 0x00000000
T2960 14936:192.000 JLINK_ReadReg(FPS28)
T2960 14936:192.000 - 0.005ms returns 0x00000000
T2960 14936:192.000 JLINK_ReadReg(FPS29)
T2960 14936:192.000 - 0.005ms returns 0x00000000
T2960 14936:192.000 JLINK_ReadReg(FPS30)
T2960 14936:192.000 - 0.005ms returns 0x00000000
T2960 14936:192.000 JLINK_ReadReg(FPS31)
T2960 14936:192.000 - 0.005ms returns 0xFFFFFFFF
T7024 14936:200.192 JLINK_HasError()
T7024 14936:200.192 JLINK_ReadMemU32(0xE0001004, 0x1 Items)
T7024 14936:200.192   CPU_ReadMem(4 bytes @ 0xE0001004)
T7024 14936:200.192   Data:  3A 0D 00 00
T7024 14936:200.192   Debug reg: DWT_CYCCNT
T7024 14936:200.192 - 0.431ms returns 1 (0x1)
T7024 14936:209.408 JLINK_ReadMemEx(0x08005838, 0x3C Bytes, Flags = 0x02000000)
T7024 14936:209.408   CPU_ReadMem(128 bytes @ 0x08005800)
T7024 14936:209.408    -- Updating C cache (128 bytes @ 0x08005800)
T7024 14936:209.408    -- Read from C cache (60 bytes @ 0x08005838)
T7024 14936:209.408   Data:  01 98 02 B0 80 BD 00 BF 78 03 00 24 8E B0 02 48 ...
T7024 14936:209.408 - 0.602ms returns 60 (0x3C)
T7024 14936:209.408 JLINK_ReadMemEx(0x08005838, 0x2 Bytes, Flags = 0x02000000)
T7024 14936:209.408    -- Read from C cache (2 bytes @ 0x08005838)
T7024 14936:209.408   Data:  01 98
T7024 14936:209.408 - 0.021ms returns 2 (0x2)
T7024 14936:209.408 JLINK_ReadMemEx(0x0800583A, 0x2 Bytes, Flags = 0x02000000)
T7024 14936:209.408    -- Read from C cache (2 bytes @ 0x0800583A)
T7024 14936:209.408   Data:  02 B0
T7024 14936:209.408 - 0.019ms returns 2 (0x2)
T7024 14936:209.408 JLINK_ReadMemEx(0x0800583A, 0x2 Bytes, Flags = 0x02000000)
T7024 14936:209.408    -- Read from C cache (2 bytes @ 0x0800583A)
T7024 14936:209.408   Data:  02 B0
T7024 14936:209.408 - 0.019ms returns 2 (0x2)
T7024 14936:209.408 JLINK_ReadMemEx(0x0800583C, 0x3C Bytes, Flags = 0x02000000)
T7024 14936:209.408    -- Read from C cache (60 bytes @ 0x0800583C)
T7024 14936:209.408   Data:  80 BD 00 BF 78 03 00 24 8E B0 02 48 01 68 89 03 ...
T7024 14936:209.408 - 0.020ms returns 60 (0x3C)
T7024 14936:209.408 JLINK_ReadMemEx(0x0800583C, 0x2 Bytes, Flags = 0x02000000)
T7024 14936:209.408    -- Read from C cache (2 bytes @ 0x0800583C)
T7024 14936:209.408   Data:  80 BD
T7024 14936:209.408 - 0.018ms returns 2 (0x2)
T7024 14936:209.408 JLINK_ReadMemEx(0x0800583C, 0x3C Bytes, Flags = 0x02000000)
T7024 14936:209.408    -- Read from C cache (60 bytes @ 0x0800583C)
T7024 14936:209.408   Data:  80 BD 00 BF 78 03 00 24 8E B0 02 48 01 68 89 03 ...
T7024 14936:209.408 - 0.019ms returns 60 (0x3C)
T7024 14936:209.408 JLINK_ReadMemEx(0x0800583C, 0x2 Bytes, Flags = 0x02000000)
T7024 14936:209.408    -- Read from C cache (2 bytes @ 0x0800583C)
T7024 14936:209.408   Data:  80 BD
T7024 14936:209.408 - 0.018ms returns 2 (0x2)
T7024 14936:209.408 JLINK_ReadMemEx(0x0800583E, 0x2 Bytes, Flags = 0x02000000)
T7024 14936:209.408    -- Read from C cache (2 bytes @ 0x0800583E)
T7024 14936:209.408   Data:  00 BF
T7024 14936:209.408 - 0.018ms returns 2 (0x2)
T7024 14936:209.408 JLINK_ReadMemEx(0x0800583E, 0x2 Bytes, Flags = 0x02000000)
T7024 14936:209.408    -- Read from C cache (2 bytes @ 0x0800583E)
T7024 14936:209.408   Data:  00 BF
T7024 14936:209.408 - 0.024ms returns 2 (0x2)
T7024 14936:209.408 JLINK_ReadMemEx(0x08005840, 0x3C Bytes, Flags = 0x02000000)
T7024 14936:209.408    -- Read from C cache (60 bytes @ 0x08005840)
T7024 14936:209.408   Data:  78 03 00 24 8E B0 02 48 01 68 89 03 15 D4 01 E0 ...
T7024 14936:209.408 - 0.019ms returns 60 (0x3C)
T7024 14936:209.408 JLINK_ReadMemEx(0x08005840, 0x2 Bytes, Flags = 0x02000000)
T7024 14936:209.408    -- Read from C cache (2 bytes @ 0x08005840)
T7024 14936:209.408   Data:  78 03
T7024 14936:209.408 - 0.018ms returns 2 (0x2)
T7024 14936:209.408 JLINK_ReadMemEx(0x08005840, 0x3C Bytes, Flags = 0x02000000)
T7024 14936:209.408    -- Read from C cache (60 bytes @ 0x08005840)
T7024 14936:209.408   Data:  78 03 00 24 8E B0 02 48 01 68 89 03 15 D4 01 E0 ...
T7024 14936:209.408 - 0.020ms returns 60 (0x3C)
T7024 14936:209.408 JLINK_ReadMemEx(0x08005840, 0x2 Bytes, Flags = 0x02000000)
T7024 14936:209.408    -- Read from C cache (2 bytes @ 0x08005840)
T7024 14936:209.408   Data:  78 03
T7024 14936:209.408 - 0.018ms returns 2 (0x2)
T7024 14936:209.408 JLINK_ReadMemEx(0x08005842, 0x2 Bytes, Flags = 0x02000000)
T7024 14936:209.408    -- Read from C cache (2 bytes @ 0x08005842)
T7024 14936:209.408   Data:  00 24
T7024 14936:209.408 - 0.018ms returns 2 (0x2)
T7024 14936:209.408 JLINK_ReadMemEx(0x08005842, 0x2 Bytes, Flags = 0x02000000)
T7024 14936:209.408    -- Read from C cache (2 bytes @ 0x08005842)
T7024 14936:209.408   Data:  00 24
T7024 14936:209.408 - 0.019ms returns 2 (0x2)
T7024 14936:209.408 JLINK_ReadMemEx(0x08005844, 0x3C Bytes, Flags = 0x02000000)
T7024 14936:209.408    -- Read from C cache (60 bytes @ 0x08005844)
T7024 14936:209.408   Data:  8E B0 02 48 01 68 89 03 15 D4 01 E0 14 ED 00 E0 ...
T7024 14936:209.408 - 0.019ms returns 60 (0x3C)
T7024 14936:209.408 JLINK_ReadMemEx(0x08005844, 0x2 Bytes, Flags = 0x02000000)
T7024 14936:209.408    -- Read from C cache (2 bytes @ 0x08005844)
T7024 14936:209.408   Data:  8E B0
T7024 14936:209.408 - 0.018ms returns 2 (0x2)
T2960 14937:094.144 JLINK_ReadMemEx(0x08005844, 0x2 Bytes, Flags = 0x02000000)
T2960 14937:094.144    -- Read from C cache (2 bytes @ 0x08005844)
T2960 14937:094.144   Data:  8E B0
T2960 14937:094.144 - 0.040ms returns 2 (0x2)
T2960 14937:094.144 JLINK_HasError()
T2960 14937:094.144 JLINK_SetBPEx(Addr = 0x0800197A, Type = 0xFFFFFFF2)
T2960 14937:094.144 - 0.006ms returns 0x00000003
T2960 14937:094.144 JLINK_HasError()
T2960 14937:094.144 JLINK_HasError()
T2960 14937:094.144 JLINK_ReadMemU32(0xE0001004, 0x1 Items)
T2960 14937:094.144   Data:  3A 0D 00 00
T2960 14937:094.144   Debug reg: DWT_CYCCNT
T2960 14937:094.144 - 0.024ms returns 1 (0x1)
T2960 14937:094.144 JLINK_WriteU32(0xE0001004, 0x00000FFF)
T2960 14937:094.144   Debug reg: DWT_CYCCNT
T2960 14937:094.144 - 0.016ms returns 0 (0x00000000)
T2960 14937:094.144 JLINK_WriteU32(0xE0001000, 0x0041061F)
T2960 14937:094.144   Debug reg: DWT_CTRL
T2960 14937:094.144   CPU_WriteMem(4 bytes @ 0xE0001000)
T2960 14937:096.192 - 0.373ms returns 0 (0x00000000)
T2960 14937:096.192 JLINK_WriteU32(0xE0000E80, 0x0001000F)
T2960 14937:096.192   Debug reg: ITM_TCR
T2960 14937:096.192 - 0.014ms returns 0 (0x00000000)
T2960 14937:096.192 JLINK_SWO_Control(JLINKARM_SWO_CMD_GET_NUM_BYTES, ...)
T2960 14937:096.192 - 0.005ms returns 0x00
T2960 14937:096.192 JLINK_Go()
T2960 14937:096.192   CPU_WriteMem(4 bytes @ 0xE0002000)
T2960 14937:096.192   CPU_ReadMem(4 bytes @ 0xE0001000)
T2960 14937:096.192   CPU_WriteMem(4 bytes @ 0xE0000E80)
T2960 14937:096.192   CPU_WriteMem(4 bytes @ 0xE0002008)
T2960 14937:096.192   CPU_WriteMem(4 bytes @ 0xE000200C)
T2960 14937:098.240   CPU_WriteMem(4 bytes @ 0xE0001004)
T2960 14937:098.240 - 2.363ms 
T2960 14937:098.240 JLINK_WriteU32(0xE0001000, 0x0001061F)
T2960 14937:098.240   Debug reg: DWT_CTRL
T2960 14937:098.240   CPU is running
T2960 14937:098.240   CPU_WriteMem(4 bytes @ 0xE0001000)
T2960 14937:098.240 - 0.390ms returns 0 (0x00000000)
T2960 14937:199.616 JLINK_SWO_Read(..., Offset = 0x00, NumBytes = 0x400000)
T2960 14937:199.616   Data: 
T2960 14937:199.616 - 0.032ms returns NumBytesRead = 0x00
T2960 14937:199.616 JLINK_SWO_Control(JLINKARM_SWO_CMD_FLUSH, ...)
T2960 14937:199.616 - 0.005ms returns 0x00
T2960 14937:199.616 JLINK_HasError()
T2960 14937:199.616 JLINK_IsHalted()
T2960 14937:199.616 - 0.397ms returns FALSE
T2960 14937:300.992 JLINK_SWO_Read(..., Offset = 0x00, NumBytes = 0x400000)
T2960 14937:300.992   Data: 
T2960 14937:300.992 - 0.027ms returns NumBytesRead = 0x00
T2960 14937:300.992 JLINK_SWO_Control(JLINKARM_SWO_CMD_FLUSH, ...)
T2960 14937:300.992 - 0.022ms returns 0x00
T2960 14937:300.992 JLINK_HasError()
T2960 14937:300.992 JLINK_IsHalted()
T2960 14937:300.992 - 0.342ms returns FALSE
T2960 14937:401.344 JLINK_SWO_Read(..., Offset = 0x00, NumBytes = 0x400000)
T2960 14937:401.344   Data: 
T2960 14937:401.344 - 0.054ms returns NumBytesRead = 0x00
T2960 14937:401.344 JLINK_SWO_Control(JLINKARM_SWO_CMD_FLUSH, ...)
T2960 14937:401.344 - 0.006ms returns 0x00
T2960 14937:401.344 JLINK_HasError()
T2960 14937:401.344 JLINK_IsHalted()
T2960 14937:402.368 - 0.360ms returns FALSE
T2960 14937:502.720 JLINK_SWO_Read(..., Offset = 0x00, NumBytes = 0x400000)
T2960 14937:502.720   Data: 
T2960 14937:502.720 - 0.026ms returns NumBytesRead = 0x00
T2960 14937:502.720 JLINK_SWO_Control(JLINKARM_SWO_CMD_FLUSH, ...)
T2960 14937:502.720 - 0.005ms returns 0x00
T2960 14937:502.720 JLINK_HasError()
T2960 14937:502.720 JLINK_IsHalted()
T2960 14937:503.744 - 0.359ms returns FALSE
T2960 14937:604.096 JLINK_SWO_Read(..., Offset = 0x00, NumBytes = 0x400000)
